
**** 04/20/12 14:28:10 *********** Evaluation PSpice (Nov 1999) **************

 * C:\Users\Lucas.ordinateur\Documents\PPE\prsentation\schemas pspice\debitmetre potentiometre raz\schema.sch


 ****     CIRCUIT DESCRIPTION


******************************************************************************




* Schematics Version 9.1 - Web Update 1
* Sun Apr 08 11:03:54 2012



** Analysis setup **
.tran 100ns 100ms 0 10ms
.OP 


* From [PSPICE NETLIST] section of pspiceev.ini:
.lib "nom.lib"

.INC "schema.net"

**** INCLUDING schema.net ****
* Schematics Netlist *



R_R2         ep s  470k  
R_R1         ep mv  100  
R_Rdiv1         s PIC_A3  1.8k  
R_R4         0 mv  47k  
R_R3         mv batt  47k  
X_U5A         ep em batt 0 s LM324
V_Vdeb         em $N_0001 DC 1 
+SIN 0 40m 82 0 0 0
V_VdebP         $N_0001 $N_0002 DC 1 
+SIN 0 1m 4000 0 0 0
V_VdebPP         mv $N_0002 DC 1 
+SIN 0 2m 8000 0 0 0
R_Rdiv2         PIC_A3 0  1.8k  
RT_Rangle         5v PIC_A0 {(10K*(1-0.5))+.001}
RB_Rangle        PIC_A0 0 {(10K*0.5)+.001}
V_V5         5v 0 DC 5V  
V_V12         batt 0 DC 12  
X_RAZ         $N_0003 5v Sw_tOpen PARAMS: tOpen=1 ttran=1u Rclosed=0.01
+  Ropen=1Meg
R_Rraz         0 $N_0003  10k  
R_R100         0 PIC_A0  1Meg  

**** RESUMING schema.cir ****
.INC "schema.als"



**** INCLUDING schema.als ****
* Schematics Aliases *

.ALIASES
R_R2            R2(1=ep 2=s )
R_R1            R1(1=ep 2=mv )
R_Rdiv1          Rdiv1(1=s 2=PIC_A3 )
R_R4            R4(1=0 2=mv )
R_R3            R3(1=mv 2=batt )
X_U5A           U5A(+=ep -=em V+=batt V-=0 OUT=s )
V_Vdeb          Vdeb(+=em -=$N_0001 )
V_VdebP          VdebP(+=$N_0001 -=$N_0002 )
V_VdebPP          VdebPP(+=mv -=$N_0002 )
R_Rdiv2          Rdiv2(1=PIC_A3 2=0 )
RT_Rangle          Rangle(1=5v t=PIC_A0 )
RB_Rangle         Rangle(t=PIC_A0 2=0 )
V_V5            V5(+=5v -=0 )
V_V12           V12(+=batt -=0 )
X_RAZ           RAZ(1=$N_0003 2=5v )
R_Rraz          Rraz(1=0 2=$N_0003 )
R_R100          R100(1=0 2=PIC_A0 )
_    _(s=s)
_    _(ep=ep)
_    _(mv=mv)
_    _(PIC_A3=PIC_A3)
_    _(batt=batt)
_    _(em=em)
_    _(PIC_A2=0)
_    _(5v=5v)
_    _(PIC_A0=PIC_A0)
.ENDALIASES


**** RESUMING schema.cir ****
.probe


.END

**** 04/20/12 14:28:10 *********** Evaluation PSpice (Nov 1999) **************

 * C:\Users\Lucas.ordinateur\Documents\PPE\prsentation\schemas pspice\debitmetre potentiometre raz\schema.sch


 ****     Diode MODEL PARAMETERS


******************************************************************************




               X_U5A.dx        
          IS  800.000000E-18 
          RS    1            


**** 04/20/12 14:28:10 *********** Evaluation PSpice (Nov 1999) **************

 * C:\Users\Lucas.ordinateur\Documents\PPE\prsentation\schemas pspice\debitmetre potentiometre raz\schema.sch


 ****     BJT MODEL PARAMETERS


******************************************************************************




               X_U5A.qx        
               PNP             
          IS  800.000000E-18 
          BF  166.7          
          NF    1            
          BR    1            
          NR    1            
          CN    2.2          
           D     .52         


**** 04/20/12 14:28:10 *********** Evaluation PSpice (Nov 1999) **************

 * C:\Users\Lucas.ordinateur\Documents\PPE\prsentation\schemas pspice\debitmetre potentiometre raz\schema.sch


 ****     Voltage Controlled Switch MODEL PARAMETERS


******************************************************************************




               X_RAZ.Smod      
         RON     .01         
        ROFF    1.000000E+06 
         VON    1            
        VOFF    0            


**** 04/20/12 14:28:10 *********** Evaluation PSpice (Nov 1999) **************

 * C:\Users\Lucas.ordinateur\Documents\PPE\prsentation\schemas pspice\debitmetre potentiometre raz\schema.sch


 ****     SMALL SIGNAL BIAS SOLUTION       TEMPERATURE =   27.000 DEG C


******************************************************************************



 NODE   VOLTAGE     NODE   VOLTAGE     NODE   VOLTAGE     NODE   VOLTAGE


(    s)     .0367  (   5v)    5.0000  (   em)    6.7181  (   ep)    5.7169      

(   mv)    5.7181  ( batt)   12.0000  (PIC_A0)    2.4938 (PIC_A3)     .0183     

($N_0001)    5.7181                   ($N_0002)    4.7181                       

($N_0003)    5.0000                   (X_RAZ.3)    1.0000                       

(X_U5A.6)    1.4994                   (X_U5A.7)     .0358                       

(X_U5A.8)     .0358                   (X_U5A.9)    0.0000                       

(X_U5A.10)    6.3564                  (X_U5A.11) 69.36E-09                      

(X_U5A.12)     .0794                  (X_U5A.13)    6.3564                      

(X_U5A.14)    6.3287                  (X_U5A.53)   10.5000                      

(X_U5A.54)     .6500                  (X_U5A.90)    -.0178                      

(X_U5A.91)   40.0000                  (X_U5A.92)  -40.0000                      

(X_U5A.99)    6.0000                  




    VOLTAGE SOURCE CURRENTS
    NAME         CURRENT

    V_Vdeb      -6.721E-12
    V_VdebP     -6.721E-12
    V_VdebPP     6.721E-12
    V_V5        -1.001E-03
    V_V12       -1.470E-03
    X_U5A.vb     1.499E-05
    X_U5A.vc     1.046E-11
    X_U5A.ve    -1.590E-05
    X_U5A.vlim  -1.781E-05
    X_U5A.vlp   -4.002E-11
    X_U5A.vln   -3.999E-11
    X_RAZ.V1    -1.000E-12

    TOTAL POWER DISSIPATION   2.27E-02  WATTS


**** 04/20/12 14:28:10 *********** Evaluation PSpice (Nov 1999) **************

 * C:\Users\Lucas.ordinateur\Documents\PPE\prsentation\schemas pspice\debitmetre potentiometre raz\schema.sch


 ****     OPERATING POINT INFORMATION      TEMPERATURE =   27.000 DEG C


******************************************************************************






**** VOLTAGE-CONTROLLED CURRENT SOURCES


NAME         X_U5A.ga    X_U5A.gcm 
I-SOURCE    -1.497E-05   2.125E-08


**** VOLTAGE-CONTROLLED VOLTAGE SOURCES


NAME         X_U5A.egnd
V-SOURCE     6.000E+00
I-SOURCE     1.783E-05


**** CURRENT-CONTROLLED CURRENT SOURCES


NAME         X_U5A.fb  
I-SOURCE     2.401E-01


**** CURRENT-CONTROLLED VOLTAGE SOURCES


NAME         X_U5A.hlim
V-SOURCE    -1.781E-02
I-SOURCE     3.562E-14


**** DIODES


NAME         X_U5A.dc    X_U5A.de    X_U5A.dlp   X_U5A.dln   X_U5A.dp  
MODEL        X_U5A.dx    X_U5A.dx    X_U5A.dx    X_U5A.dx    X_U5A.dx  
ID          -1.05E-11    1.59E-05   -4.00E-11   -4.00E-11   -1.20E-11 
VD          -1.05E+01    6.13E-01   -4.00E+01   -4.00E+01   -1.20E+01 
REQ          1.00E+12    1.63E+03    1.00E+12    1.00E+12    1.00E+12 
CAP          0.00E+00    0.00E+00    0.00E+00    0.00E+00    0.00E+00 


**** BIPOLAR JUNCTION TRANSISTORS


NAME         X_U5A.q1    X_U5A.q2  
MODEL        X_U5A.qx    X_U5A.qx  
IB           6.72E-12   -8.98E-08 
IC          -1.31E-11   -1.50E-05 
VBE          3.62E-01   -6.12E-01 
VBC          6.72E+00    5.64E+00 
VCE         -6.36E+00   -6.25E+00 
BETADC      -1.95E+00    1.67E+02 
GM           0.00E+00    5.79E-04 
RPI          1.67E+14    2.88E+05 
RX           0.00E+00    0.00E+00 
RO           1.00E+12    1.00E+12 
CBE          0.00E+00    0.00E+00 
CBC          0.00E+00    0.00E+00 
CJS          0.00E+00    0.00E+00 
BETAAC       0.00E+00    1.67E+02 
CBX/CBX2     0.00E+00    0.00E+00 
FT/FT2       0.00E+00    9.21E+15 




**** VOLTAGE CONTROLLED SWITCHES


NAME         X_RAZ.S1  
MODEL        X_RAZ.Smod
I LOAD      -5.00E-04 
V LOAD      -5.00E-06 
R LOAD       1.00E-02 
V CTRL       1.00E+00 
**** 04/20/12 14:28:10 *********** Evaluation PSpice (Nov 1999) **************

 * C:\Users\Lucas.ordinateur\Documents\PPE\prsentation\schemas pspice\debitmetre potentiometre raz\schema.sch


 ****     INITIAL TRANSIENT SOLUTION       TEMPERATURE =   27.000 DEG C


******************************************************************************



 NODE   VOLTAGE     NODE   VOLTAGE     NODE   VOLTAGE     NODE   VOLTAGE


(    s)    7.0745  (   5v)    5.0000  (   em)    6.0532  (   ep)    6.0534      

(   mv)    6.0532  ( batt)   12.0000  (PIC_A0)    2.4938 (PIC_A3)    3.5372     

($N_0001)    6.0532                   ($N_0002)    6.0532                       

($N_0003)    5.0000                   (X_RAZ.3)    1.0000                       

(X_U5A.6)-231.0E-06                   (X_U5A.7)    7.1729                       

(X_U5A.8)    7.1729                   (X_U5A.9)    0.0000                       

(X_U5A.10)    6.6609                  (X_U5A.11)     .0398                      

(X_U5A.12)     .0395                  (X_U5A.13)    6.6470                      

(X_U5A.14)    6.6471                  (X_U5A.53)   10.5000                      

(X_U5A.54)     .6500                  (X_U5A.90)    1.9673                      

(X_U5A.91)   40.0000                  (X_U5A.92)  -40.0000                      

(X_U5A.99)    6.0000                  




    VOLTAGE SOURCE CURRENTS
    NAME         CURRENT

    V_Vdeb       4.496E-08
    V_VdebP      4.496E-08
    V_VdebPP    -4.496E-08
    V_V5        -1.001E-03
    V_V12       -1.463E-03
    X_U5A.vb    -2.310E-09
    X_U5A.vc     3.426E-12
    X_U5A.ve     6.425E-12
    X_U5A.vlim   1.967E-03
    X_U5A.vlp   -3.803E-11
    X_U5A.vln   -4.197E-11
    X_RAZ.V1    -1.000E-12

    TOTAL POWER DISSIPATION   2.26E-02  WATTS



          JOB CONCLUDED

          TOTAL JOB TIME             .92
